time	V(v_out)	V(n002)
0.000000000000000e+000	9.496228e+001	9.971924e+001
8.258272596252565e-008	9.519917e+001	9.995548e+001
2.477481778874685e-007	9.567284e+001	1.004278e+002
5.780790817374627e-007	9.661961e+001	1.013716e+002
1.177435312753501e-006	9.833556e+001	1.030818e+002
2.023437499999964e-006	1.007543e+002	1.054917e+002
2.523437499999922e-006	1.021816e+002	1.069132e+002
2.999999999999965e-006	1.035403e+002	1.082661e+002
3.001048561414852e-006	1.035433e+002	1.082691e+002
3.003145684244628e-006	1.035492e+002	1.082750e+002
3.005128946334014e-006	1.035549e+002	1.082807e+002
3.007044389805708e-006	1.035603e+002	1.082861e+002
3.010875276748988e-006	1.035713e+002	1.082970e+002
3.015091962610145e-006	1.035833e+002	1.083089e+002
3.021623965203369e-006	1.036019e+002	1.083275e+002
3.029169796890619e-006	1.036234e+002	1.083489e+002
3.040499454707245e-006	1.036556e+002	1.083810e+002
3.055003051305157e-006	1.036969e+002	1.084221e+002
3.078078111404281e-006	1.037626e+002	1.084875e+002
3.113373867701455e-006	1.038631e+002	1.085855e+002
3.183965380295912e-006	1.040601e+002	1.085858e+002
3.241627082805677e-006	1.042043e+002	1.079924e+002
3.292800918721977e-006	1.043072e+002	1.067851e+002
3.302532123283862e-006	1.043203e+002	1.064385e+002
3.321994532407523e-006	1.043360e+002	1.055851e+002
3.331855340370877e-006	1.043408e+002	1.050981e+002
3.337830215397039e-006	1.043420e+002	1.046605e+002
3.339879804039616e-006	1.043421e+002	1.042567e+002
3.341774787309309e-006	1.043421e+002	1.035655e+002
3.342744329048086e-006	1.043421e+002	1.031268e+002
3.343823817500056e-006	1.043421e+002	1.025940e+002
3.345982794404102e-006	1.043421e+002	1.014359e+002
3.349311486196575e-006	1.043421e+002	9.945662e+001
3.352777721210760e-006	1.043420e+002	9.707533e+001
3.359710191239130e-006	1.043420e+002	9.140437e+001
3.368690500652437e-006	1.043419e+002	8.303881e+001
3.369112445701650e-006	1.043419e+002	8.260410e+001
3.369956335800076e-006	1.043419e+002	8.167818e+001
3.375019676390739e-006	1.043419e+002	7.582498e+001
3.376496484062985e-006	1.043419e+002	7.402579e+001
3.376601970325288e-006	1.043419e+002	7.390619e+001
3.376812942849894e-006	1.043419e+002	7.371086e+001
3.376865685981046e-006	1.043419e+002	7.367977e+001
3.376971172243349e-006	1.043419e+002	7.364592e+001
3.377182144767956e-006	1.043419e+002	7.359114e+001
3.377604089817169e-006	1.043418e+002	7.349947e+001
3.378447979915595e-006	1.043417e+002	7.333965e+001
3.379626673686870e-006	1.043413e+002	7.313611e+001
3.381267430193442e-006	1.043406e+002	7.287174e+001
3.384001815879851e-006	1.043385e+002	7.246329e+001
3.389470587252669e-006	1.043320e+002	7.173135e+001
3.400408129998196e-006	1.043103e+002	7.047158e+001
3.422283215489359e-006	1.042439e+002	6.827901e+001
3.446705855081355e-006	1.041418e+002	6.598448e+001
3.463047316818748e-006	1.040570e+002	6.444352e+001
3.468326271558916e-006	1.040247e+002	6.392468e+001
3.473605226299083e-006	1.039906e+002	6.339591e+001
3.478884181039251e-006	1.039548e+002	6.285722e+001
3.484163135779419e-006	1.039171e+002	6.230860e+001
3.489442090519587e-006	1.038776e+002	6.175006e+001
3.494721045259755e-006	1.038363e+002	6.118159e+001
3.499999999999922e-006	1.037931e+002	6.060320e+001
3.502468434130198e-006	1.037721e+002	6.035095e+001
3.505759679637232e-006	1.037434e+002	6.005901e+001
3.512342170651299e-006	1.036844e+002	5.959706e+001
3.525507152679435e-006	1.035622e+002	5.897871e+001
3.551837116735706e-006	1.033104e+002	5.826941e+001
3.583310312675983e-006	1.030045e+002	5.779065e+001
3.628091390290070e-006	1.025664e+002	5.731650e+001
3.691915377520964e-006	1.019414e+002	5.668884e+001
3.819563351982751e-006	1.006915e+002	5.544164e+001
3.962482873128072e-006	9.929219e+001	5.404518e+001
4.105402394273393e-006	9.789320e+001	5.264918e+001
4.248321915418714e-006	9.649453e+001	5.125363e+001
4.391241436564035e-006	9.509618e+001	4.985854e+001
4.534160957709356e-006	9.369815e+001	4.846391e+001
4.677080478854678e-006	9.230044e+001	4.706972e+001
4.819999999999998e-006	9.090305e+001	4.567600e+001
4.835760713210540e-006	9.075765e+001	4.616531e+001
4.867282139631624e-006	9.049677e+001	4.762626e+001
4.930324992473683e-006	9.008478e+001	5.122984e+001
4.989501212781730e-006	8.983332e+001	5.449269e+001
5.057645058850996e-006	8.968721e+001	5.933285e+001
5.093632150457699e-006	8.965835e+001	6.618741e+001
5.109818674195487e-006	8.965625e+001	7.369097e+001
5.119586127266015e-006	8.965623e+001	8.079949e+001
5.124698051022381e-006	8.965622e+001	8.526522e+001
5.128152796465011e-006	8.965622e+001	8.854168e+001
5.129688908498266e-006	8.965623e+001	8.989946e+001
5.130133204402586e-006	8.965625e+001	9.012616e+001
5.130589821892391e-006	8.965628e+001	9.021439e+001
5.130872196578633e-006	8.965631e+001	9.025925e+001
5.131222382681079e-006	8.965636e+001	9.031070e+001
5.131712343095659e-006	8.965646e+001	9.037880e+001
5.132164170333934e-006	8.965656e+001	9.043864e+001
5.132929949655941e-006	8.965678e+001	9.053497e+001
5.133757534464241e-006	8.965706e+001	9.063350e+001
5.135099841111694e-006	8.965763e+001	9.078214e+001
5.137006783558634e-006	8.965869e+001	9.097247e+001
5.140820668452515e-006	8.966156e+001	9.129617e+001
5.147501997555880e-006	8.966840e+001	9.174022e+001
5.160040455248348e-006	8.968512e+001	9.235412e+001
5.172944619270185e-006	8.970641e+001	9.281334e+001
5.191639044364177e-006	8.974308e+001	9.330663e+001
5.214820462725233e-006	8.979563e+001	9.377435e+001
5.254741348200711e-006	8.989796e+001	9.431047e+001
5.318999528104631e-006	9.007534e+001	9.477702e+001
5.372094716000575e-006	9.022646e+001	9.498051e+001
5.446595862970065e-006	9.044007e+001	9.519374e+001
5.519999999999961e-006	9.065053e+001	9.540562e+001
5.520177416659775e-006	9.065103e+001	9.540492e+001
5.520532249979403e-006	9.065205e+001	9.540531e+001
5.521241916618767e-006	9.065408e+001	9.540736e+001
5.522221869830118e-006	9.065689e+001	9.541017e+001
5.524181776252819e-006	9.066251e+001	9.541578e+001
5.528101589098223e-006	9.067375e+001	9.542701e+001
5.533427132704155e-006	9.068902e+001	9.544225e+001
5.538640620793961e-006	9.070396e+001	9.545718e+001
5.544179993891983e-006	9.071984e+001	9.547304e+001
5.549342518750325e-006	9.073464e+001	9.548781e+001
5.554724441074140e-006	9.075008e+001	9.550321e+001
5.560086004352451e-006	9.076544e+001	9.551855e+001
5.565562944919431e-006	9.078114e+001	9.553423e+001
5.571284897681731e-006	9.079755e+001	9.555060e+001
5.576921434897542e-006	9.081371e+001	9.556673e+001
5.583349061347295e-006	9.083213e+001	9.558511e+001
5.589366951796061e-006	9.084938e+001	9.560233e+001
5.597308714871572e-006	9.087215e+001	9.562505e+001
5.605691390007960e-006	9.089618e+001	9.564904e+001
5.618893039983095e-006	9.093402e+001	9.568681e+001
5.633109133151414e-006	9.097477e+001	9.572749e+001
5.659762665662701e-006	9.105117e+001	9.580373e+001
5.693684921382063e-006	9.114840e+001	9.590077e+001
5.897218455698234e-006	9.173165e+001	9.648282e+001
6.168596501453130e-006	9.250897e+001	9.725839e+001
6.711352592963030e-006	9.406232e+001	9.880784e+001
7.687915092963031e-006	9.685352e+001	1.015909e+002
8.664477592963031e-006	9.964050e+001	1.043687e+002
9.023437499999917e-006	1.006634e+002	1.053878e+002
9.598731115557295e-006	1.023002e+002	1.070180e+002
9.767967025180245e-006	1.027811e+002	1.074969e+002
9.999999999999918e-006	1.034403e+002	1.081532e+002
1.000051059733896e-005	1.034417e+002	1.081546e+002
1.000153179201704e-005	1.034446e+002	1.081575e+002
1.000256158939733e-005	1.034475e+002	1.081604e+002
1.000358765229235e-005	1.034504e+002	1.081633e+002
1.000563977808251e-005	1.034563e+002	1.081691e+002
1.000856228643686e-005	1.034646e+002	1.081774e+002
1.001255720113180e-005	1.034759e+002	1.081887e+002
1.001766846044517e-005	1.034904e+002	1.082031e+002
1.002450210459236e-005	1.035098e+002	1.082225e+002
1.003349799297152e-005	1.035354e+002	1.082479e+002
1.004592749421043e-005	1.035706e+002	1.082830e+002
1.006349169822959e-005	1.036205e+002	1.083327e+002
1.009055413658344e-005	1.036973e+002	1.084091e+002
1.013688608001914e-005	1.038264e+002	1.084595e+002
1.022954996689055e-005	1.040719e+002	1.080881e+002
1.026460204310781e-005	1.041493e+002	1.074732e+002
1.030575273302397e-005	1.042165e+002	1.061819e+002
1.031215033457059e-005	1.042233e+002	1.059260e+002
1.032494553766371e-005	1.042313e+002	1.053335e+002
1.033144032936469e-005	1.042340e+002	1.050090e+002
1.033538242823956e-005	1.042348e+002	1.047917e+002
1.033771511403940e-005	1.042350e+002	1.046381e+002
1.033866930098576e-005	1.042350e+002	1.045354e+002
1.033915646388942e-005	1.042350e+002	1.044289e+002
1.033970076644861e-005	1.042350e+002	1.042486e+002
1.034007712125465e-005	1.042350e+002	1.041020e+002
1.034045151572386e-005	1.042350e+002	1.039468e+002
1.034120030466226e-005	1.042350e+002	1.036223e+002
1.034226139158773e-005	1.042350e+002	1.031367e+002
1.034372891128193e-005	1.042350e+002	1.024185e+002
1.034571796052451e-005	1.042350e+002	1.013587e+002
1.034862450495901e-005	1.042350e+002	9.963100e+001
1.035282878010697e-005	1.042350e+002	9.675273e+001
1.035924030445389e-005	1.042349e+002	9.150254e+001
1.036900108863676e-005	1.042349e+002	8.233926e+001
1.037057856370367e-005	1.042349e+002	8.061945e+001
1.037268186379300e-005	1.042348e+002	7.824780e+001
1.037688846397165e-005	1.042347e+002	7.355380e+001
1.037696579383345e-005	1.042347e+002	7.350006e+001
1.037712045355707e-005	1.042347e+002	7.345987e+001
1.037742977300429e-005	1.042347e+002	7.339171e+001
1.037804841189875e-005	1.042346e+002	7.327157e+001
1.037919919660943e-005	1.042343e+002	7.306888e+001
1.038050982437287e-005	1.042337e+002	7.285378e+001
1.038279188144060e-005	1.042323e+002	7.250447e+001
1.038708554398948e-005	1.042279e+002	7.190640e+001
1.039567286908734e-005	1.042135e+002	7.086414e+001
1.041284751928306e-005	1.041685e+002	6.906850e+001
1.043684653530524e-005	1.040749e+002	6.677244e+001
1.046827690713895e-005	1.039017e+002	6.372840e+001
1.049999999999998e-005	1.036838e+002	6.047964e+001
1.050317230928612e-005	1.036563e+002	6.018396e+001
1.050951692785828e-005	1.036001e+002	5.968684e+001
1.052220616500272e-005	1.034833e+002	5.900869e+001
1.054758463929159e-005	1.032417e+002	5.823550e+001
1.057740126290843e-005	1.029522e+002	5.773952e+001
1.061930661760946e-005	1.025420e+002	5.728176e+001
1.067781792359740e-005	1.019686e+002	5.670319e+001
1.102888575952535e-005	9.852850e+001	5.327038e+001
1.135190955209612e-005	9.536493e+001	5.011410e+001
1.182000000000006e-005	9.078255e+001	4.554309e+001
1.183245197374395e-005	9.066551e+001	4.587123e+001
1.185735592123182e-005	9.044922e+001	4.693528e+001
1.190716381620758e-005	9.009112e+001	4.974357e+001
1.196614039215501e-005	8.978739e+001	5.313211e+001
1.202335842288122e-005	8.960599e+001	5.611423e+001
1.205419171137665e-005	8.955401e+001	5.755350e+001
1.207243174488476e-005	8.954042e+001	5.835089e+001
1.208384126264513e-005	8.953730e+001	5.944614e+001
1.209230118005659e-005	8.953678e+001	6.180005e+001
1.210404585821597e-005	8.953671e+001	6.767589e+001
1.211647778406183e-005	8.953668e+001	7.602051e+001
1.212333674732930e-005	8.953667e+001	8.166477e+001
1.212793689788644e-005	8.953666e+001	8.597094e+001
1.213076675144343e-005	8.953667e+001	8.871317e+001
1.213214954824324e-005	8.953670e+001	8.987045e+001
1.213254232649685e-005	8.953671e+001	9.004829e+001
1.213295527294732e-005	8.953676e+001	9.012186e+001
1.213332763858553e-005	8.953680e+001	9.018026e+001
1.213372618790560e-005	8.953688e+001	9.023845e+001
1.213430901356703e-005	8.953700e+001	9.031882e+001
1.213488240509530e-005	8.953716e+001	9.039394e+001
1.213581344624421e-005	8.953747e+001	9.050912e+001
1.213690652848915e-005	8.953793e+001	9.063544e+001
1.213881469682397e-005	8.953895e+001	9.083540e+001
1.214190004454260e-005	8.954117e+001	9.111376e+001
1.214807073997976e-005	8.954728e+001	9.155215e+001
1.215996592039161e-005	8.956267e+001	9.217852e+001
1.217177448419331e-005	8.958167e+001	9.262677e+001
1.218914638684049e-005	8.961493e+001	9.310938e+001
1.220976921440702e-005	8.966047e+001	9.354915e+001
1.224527124233938e-005	8.974933e+001	9.408364e+001
1.229763499232346e-005	8.989186e+001	9.454249e+001
1.235790004616949e-005	9.006252e+001	9.480199e+001
1.242489738981689e-005	9.025402e+001	9.499543e+001
1.244874304757115e-005	9.032220e+001	9.506348e+001
1.247230868449141e-005	9.038956e+001	9.513074e+001
1.247286872615939e-005	9.039117e+001	9.513232e+001
1.247398880949537e-005	9.039437e+001	9.513551e+001
1.247622897616733e-005	9.040077e+001	9.514192e+001
1.248070930951124e-005	9.041358e+001	9.515470e+001
1.248966997619905e-005	9.043919e+001	9.518027e+001
1.250207866662428e-005	9.047467e+001	9.521568e+001
1.252000000000002e-005	9.052590e+001	9.526530e+001
1.252003911025119e-005	9.052601e+001	9.526636e+001
1.252011733075353e-005	9.052624e+001	9.526714e+001
1.252027377175822e-005	9.052668e+001	9.526761e+001
1.252058665376758e-005	9.052757e+001	9.526849e+001
1.252121241778631e-005	9.052937e+001	9.527029e+001
1.252246394582365e-005	9.053294e+001	9.527386e+001
1.252496700189835e-005	9.054010e+001	9.528101e+001
1.252997311404784e-005	9.055441e+001	9.529530e+001
1.253534782453842e-005	9.056977e+001	9.531065e+001
1.254046580190541e-005	9.058440e+001	9.532526e+001
1.254588013264145e-005	9.059988e+001	9.534071e+001
1.255103762339775e-005	9.061462e+001	9.535542e+001
1.255659014689581e-005	9.063049e+001	9.537127e+001
1.256178409184453e-005	9.064534e+001	9.538609e+001
1.256766625531319e-005	9.066216e+001	9.540287e+001
1.257298713601472e-005	9.067736e+001	9.541805e+001
1.257972849020412e-005	9.069663e+001	9.543729e+001
1.258670774412804e-005	9.071658e+001	9.545720e+001
1.259706789691014e-005	9.074619e+001	9.548676e+001
1.260775561107098e-005	9.077674e+001	9.551725e+001
1.262592367617856e-005	9.082867e+001	9.556908e+001
1.264677159311118e-005	9.088826e+001	9.562856e+001
1.268846742697642e-005	9.100742e+001	9.574750e+001
1.275656038455229e-005	9.120202e+001	9.594171e+001
1.316511813000728e-005	9.236907e+001	9.710628e+001
1.370986179061401e-005	9.392369e+001	9.865708e+001
1.468642429061401e-005	9.670703e+001	1.014325e+002
1.566298679061401e-005	9.948627e+001	1.042027e+002
1.602343749999998e-005	1.005106e+002	1.052233e+002
1.658084148736837e-005	1.020922e+002	1.067987e+002
1.676516878701742e-005	1.026146e+002	1.073188e+002
1.699999999999998e-005	1.032799e+002	1.079812e+002
1.700051675260130e-005	1.032813e+002	1.079827e+002
1.700155025780384e-005	1.032842e+002	1.079856e+002
1.700255477543112e-005	1.032871e+002	1.079885e+002
1.700355743897836e-005	1.032899e+002	1.079913e+002
1.700556276607284e-005	1.032956e+002	1.079970e+002
1.700847552551415e-005	1.033038e+002	1.080052e+002
1.701242970991539e-005	1.033150e+002	1.080163e+002
1.701751696208873e-005	1.033295e+002	1.080307e+002
1.702428552703011e-005	1.033486e+002	1.080498e+002
1.703322270587746e-005	1.033739e+002	1.080750e+002
1.704552668968322e-005	1.034088e+002	1.081097e+002
1.706292697848310e-005	1.034580e+002	1.081587e+002
1.708962321015728e-005	1.035336e+002	1.082340e+002
1.713520759074770e-005	1.036605e+002	1.082911e+002
1.722637635192864e-005	1.039029e+002	1.079668e+002
1.726173256606073e-005	1.039813e+002	1.073624e+002
1.730680453801404e-005	1.040552e+002	1.059619e+002
1.731328063554109e-005	1.040619e+002	1.057022e+002
1.732623283059521e-005	1.040695e+002	1.050949e+002
1.733280956842586e-005	1.040718e+002	1.047586e+002
1.733680373051591e-005	1.040725e+002	1.045237e+002
1.733824832467602e-005	1.040726e+002	1.043942e+002
1.733889849690968e-005	1.040726e+002	1.042652e+002
1.733963822553775e-005	1.040726e+002	1.040240e+002
1.734020329517640e-005	1.040725e+002	1.037975e+002
1.734074967017806e-005	1.040725e+002	1.035633e+002
1.734151166405014e-005	1.040725e+002	1.032207e+002
1.734303565179430e-005	1.040725e+002	1.024935e+002
1.734469178090998e-005	1.040725e+002	1.016392e+002
1.734732506945044e-005	1.040725e+002	1.001365e+002
1.735092368489524e-005	1.040725e+002	9.779934e+001
1.735657544917697e-005	1.040725e+002	9.346812e+001
1.736488303685909e-005	1.040724e+002	8.624960e+001
1.736559315899727e-005	1.040724e+002	8.554588e+001
1.736843364754997e-005	1.040724e+002	8.254756e+001
1.737316779513781e-005	1.040724e+002	7.723772e+001
1.737506145417294e-005	1.040724e+002	7.496767e+001
1.737565322262142e-005	1.040724e+002	7.424538e+001
1.737588993000081e-005	1.040724e+002	7.396446e+001
1.737636334475960e-005	1.040723e+002	7.346906e+001
1.737648169844929e-005	1.040723e+002	7.339378e+001
1.737671840582869e-005	1.040723e+002	7.332774e+001
1.737719182058747e-005	1.040723e+002	7.322427e+001
1.737813865010504e-005	1.040721e+002	7.304630e+001
1.737927759568546e-005	1.040717e+002	7.285120e+001
1.738101939237249e-005	1.040709e+002	7.257291e+001
1.738384943231262e-005	1.040687e+002	7.215381e+001
1.738950951219300e-005	1.040617e+002	7.140448e+001
1.740082967195374e-005	1.040387e+002	7.011556e+001
1.742346999147524e-005	1.039683e+002	6.786473e+001
1.744814671086198e-005	1.038641e+002	6.555570e+001
1.746151451627483e-005	1.037931e+002	6.428940e+001
1.748297198425489e-005	1.036539e+002	6.213822e+001
1.749999999999994e-005	1.035209e+002	6.030695e+001
1.750245073338244e-005	1.034999e+002	6.005673e+001
1.750571837789245e-005	1.034714e+002	5.976641e+001
1.751225366691247e-005	1.034127e+002	5.930634e+001
1.752532424495251e-005	1.032912e+002	5.868912e+001
1.755146540103258e-005	1.030409e+002	5.798043e+001
1.758328600636350e-005	1.027311e+002	5.749411e+001
1.762811791907164e-005	1.022918e+002	5.701803e+001
1.769249531021182e-005	1.016604e+002	5.638401e+001
1.782125009249218e-005	1.003975e+002	5.512398e+001
1.836755757234814e-005	9.504168e+001	4.977994e+001
1.882000000000001e-005	9.060973e+001	4.535936e+001
1.883539644376706e-005	9.046716e+001	4.582981e+001
1.886618933130105e-005	9.021045e+001	4.724631e+001
1.892777510636903e-005	8.980245e+001	5.076457e+001
1.898659373575904e-005	8.954594e+001	5.402294e+001
1.905421817322548e-005	8.939343e+001	5.812203e+001
1.908993504671033e-005	8.936253e+001	6.365731e+001
1.910816923811050e-005	8.935990e+001	7.133537e+001
1.912041315933061e-005	8.935987e+001	7.994187e+001
1.912596848955824e-005	8.935986e+001	8.476941e+001
1.912933603120612e-005	8.935986e+001	8.801384e+001
1.913087222608966e-005	8.935988e+001	8.943519e+001
1.913145077016949e-005	8.935989e+001	8.979308e+001
1.913174867477314e-005	8.935990e+001	8.987667e+001
1.913196321410877e-005	8.935992e+001	8.991386e+001
1.913221589234463e-005	8.935995e+001	8.995396e+001
1.913272124881636e-005	8.936003e+001	9.002825e+001
1.913345590540258e-005	8.936019e+001	9.012846e+001
1.913464842992160e-005	8.936054e+001	9.027842e+001
1.913618251357403e-005	8.936117e+001	9.045312e+001
1.913910654463362e-005	8.936284e+001	9.074540e+001
1.914302044324042e-005	8.936590e+001	9.107248e+001
1.914979194046675e-005	8.937291e+001	9.151976e+001
1.915841371180334e-005	8.938432e+001	9.194855e+001
1.917278016825175e-005	8.940755e+001	9.247439e+001
1.918834387957115e-005	8.943727e+001	9.290494e+001
1.921215081264710e-005	8.948982e+001	9.340757e+001
1.924345505777841e-005	8.956802e+001	9.386990e+001
1.930431714821041e-005	8.973352e+001	9.438026e+001
1.936072478270310e-005	8.989266e+001	9.462271e+001
1.943019051725342e-005	9.009074e+001	9.482110e+001
1.948310949239577e-005	9.024164e+001	9.497173e+001
1.951999999999998e-005	9.034682e+001	9.507555e+001
1.952008089816217e-005	9.034706e+001	9.507654e+001
1.952024269448645e-005	9.034752e+001	9.507742e+001
1.952056628713500e-005	9.034844e+001	9.507835e+001
1.952121347243221e-005	9.035029e+001	9.508019e+001
1.952250784302665e-005	9.035398e+001	9.508388e+001
1.952509658421540e-005	9.036136e+001	9.509126e+001
1.953027406659301e-005	9.037612e+001	9.510600e+001
1.953600384332595e-005	9.039246e+001	9.512231e+001
1.954159410307303e-005	9.040839e+001	9.513824e+001
1.954672514415127e-005	9.042303e+001	9.515284e+001
1.955204384102038e-005	9.043819e+001	9.516798e+001
1.955729377223095e-005	9.045316e+001	9.518292e+001
1.956286085459311e-005	9.046903e+001	9.519877e+001
1.956825035509568e-005	9.048440e+001	9.521411e+001
1.957423040270198e-005	9.050144e+001	9.523112e+001
1.957981198602154e-005	9.051736e+001	9.524702e+001
